/Clk (d_del=4.225641e-10) X,/Clk (d_del=4.225641e-10) Y,/Clk (d_del=4.312821e-10) X,/Clk (d_del=4.312821e-10) Y,/D (d_del=4.225641e-10) X,/D (d_del=4.225641e-10) Y,/D (d_del=4.312821e-10) X,/D (d_del=4.312821e-10) Y,/Q (d_del=4.225641e-10) X,/Q (d_del=4.225641e-10) Y,/Q (d_del=4.312821e-10) X,/Q (d_del=4.312821e-10) Y
0,0,0,0,0,0,0,0,0,0.4953185830382481,0,0.4953185830382481
1.5625e-14,0.0003125000000000001,1.5625e-14,0.0003125000000000001,1.5625e-14,0,1.5625e-14,0,1.5625e-14,0.4953328086171404,1.5625e-14,0.4953328086171404
4.687500000000001e-14,0.0009375000000000002,4.687500000000001e-14,0.0009375000000000002,4.687500000000001e-14,0,4.687500000000001e-14,0,4.687500000000001e-14,0.4953643479582839,4.687500000000001e-14,0.4953643479582839
6.250000000000001e-14,0.00125,6.250000000000001e-14,0.00125,6.250000000000001e-14,0,6.250000000000001e-14,0,6.250000000000001e-14,0.4953803711308788,6.250000000000001e-14,0.4953803711308788
9.375000000000002e-14,0.001875,9.375000000000002e-14,0.001875,9.375000000000002e-14,0,9.375000000000002e-14,0,9.375000000000002e-14,0.4954122322116183,9.375000000000002e-14,0.4954122322116183
1.5625e-13,0.003125,1.5625e-13,0.003125,1.5625e-13,0,1.5625e-13,0,1.5625e-13,0.4954757085606853,1.5625e-13,0.4954757085606853
2.8125e-13,0.005625000000000001,2.8125e-13,0.005625000000000001,2.8125e-13,0,2.8125e-13,0,2.8125e-13,0.4956023561427466,2.8125e-13,0.4956023561427466
5.312500000000001e-13,0.010625,5.312500000000001e-13,0.010625,5.312500000000001e-13,0,5.312500000000001e-13,0,5.312500000000001e-13,0.4958539042876984,5.312500000000001e-13,0.4958539042876984
9.854915065072646e-13,0.01970983013014529,9.854915065072646e-13,0.01970983013014529,9.854915065072646e-13,0,9.854915065072646e-13,0,9.854915065072646e-13,0.4963074463060053,9.854915065072646e-13,0.4963074463060053
1.635185072584763e-12,0.03270370145169525,1.635185072584763e-12,0.03270370145169525,1.635185072584763e-12,0,1.635185072584763e-12,0,1.635185072584763e-12,0.49694429907398,1.635185072584763e-12,0.49694429907398
2.735669851893396e-12,0.05471339703786791,2.735669851893396e-12,0.05471339703786791,2.735669851893396e-12,0,2.735669851893396e-12,0,2.735669851893396e-12,0.4979992023025099,2.735669851893396e-12,0.4979992023025099
4.936639410510662e-12,0.09873278821021325,4.936639410510662e-12,0.09873278821021325,4.936639410510662e-12,0,4.936639410510662e-12,0,4.936639410510662e-12,0.5000393739950924,4.936639410510662e-12,0.5000393739950924
8.745241581059369e-12,0.1749048316211874,8.745241581059369e-12,0.1749048316211874,8.745241581059369e-12,0,8.745241581059369e-12,0,8.745241581059369e-12,0.5034306098501016,8.745241581059369e-12,0.5034306098501016
1.372107933972167e-11,0.2744215867944333,1.372107933972167e-11,0.2744215867944333,1.372107933972167e-11,0,1.372107933972167e-11,0,1.372107933972167e-11,0.5077348940550667,1.372107933972167e-11,0.5077348940550667
2.056641740243239e-11,0.4113283480486478,2.056641740243239e-11,0.4113283480486478,2.056641740243239e-11,0,2.056641740243239e-11,0,2.056641740243239e-11,0.5129061651293964,2.056641740243239e-11,0.5129061651293964
2.706411833241799e-11,0.5412823666483597,2.706411833241799e-11,0.5412823666483597,2.706411833241799e-11,0,2.706411833241799e-11,0,2.706411833241799e-11,0.5109133304331955,2.706411833241799e-11,0.5109133304331955
3.078737196590969e-11,0.6157474393181938,3.078737196590969e-11,0.6157474393181938,3.078737196590969e-11,0,3.078737196590969e-11,0,3.078737196590969e-11,0.4996720238038965,3.078737196590969e-11,0.4996720238038965
3.425324281963366e-11,0.6850648563926732,3.425324281963366e-11,0.6850648563926732,3.425324281963366e-11,0,3.425324281963366e-11,0,3.425324281963366e-11,0.4736755526985302,3.425324281963366e-11,0.4736755526985302
3.780622448712845e-11,0.756124489742569,3.780622448712845e-11,0.756124489742569,3.780622448712845e-11,0,3.780622448712845e-11,0,3.780622448712845e-11,0.4255269811069226,3.780622448712845e-11,0.4255269811069226
4.120590090276522e-11,0.8241180180553044,4.120590090276522e-11,0.8241180180553044,4.120590090276522e-11,0,4.120590090276522e-11,0,4.120590090276522e-11,0.3588531190170425,4.120590090276522e-11,0.3588531190170425
4.437651497278921e-11,0.8875302994557842,4.437651497278921e-11,0.8875302994557842,4.437651497278921e-11,0,4.437651497278921e-11,0,4.437651497278921e-11,0.2829141024081822,4.437651497278921e-11,0.2829141024081822
4.742105905773062e-11,0.9484211811546124,4.742105905773062e-11,0.9484211811546124,4.742105905773062e-11,0,4.742105905773062e-11,0,4.742105905773062e-11,0.2062195784061588,4.742105905773062e-11,0.2062195784061588
5e-11,1,5e-11,1,5e-11,0,5e-11,0,5e-11,0.1486345990597116,5e-11,0.1486345990597116
5.003010606908107e-11,1,5.003010606908107e-11,1,5.003010606908107e-11,0,5.003010606908107e-11,0,5.003010606908107e-11,0.1479625678299544,5.003010606908107e-11,0.1479625678299544
5.009031820724322e-11,1,5.009031820724322e-11,1,5.009031820724322e-11,0,5.009031820724322e-11,0,5.009031820724322e-11,0.1466099223498748,5.009031820724322e-11,0.1466099223498748
5.021074248356751e-11,1,5.021074248356751e-11,1,5.021074248356751e-11,0,5.021074248356751e-11,0,5.021074248356751e-11,0.1439177642868421,5.021074248356751e-11,0.1439177642868421
5.04515910362161e-11,1,5.04515910362161e-11,1,5.04515910362161e-11,0,5.04515910362161e-11,0,5.04515910362161e-11,0.138598756330942,5.04515910362161e-11,0.138598756330942
5.093328814151327e-11,1,5.093328814151327e-11,1,5.093328814151327e-11,0,5.093328814151327e-11,0,5.093328814151327e-11,0.1282129011245808,5.093328814151327e-11,0.1282129011245808
5.16144047797406e-11,1,5.16144047797406e-11,1,5.16144047797406e-11,0,5.16144047797406e-11,0,5.16144047797406e-11,0.1141707155850787,5.16144047797406e-11,0.1141707155850787
5.25382550428677e-11,1,5.25382550428677e-11,1,5.25382550428677e-11,0,5.25382550428677e-11,0,5.25382550428677e-11,0.0965587677476358,5.25382550428677e-11,0.0965587677476358
5.389766070119252e-11,1,5.389766070119252e-11,1,5.389766070119252e-11,0,5.389766070119252e-11,0,5.389766070119252e-11,0.0741854606394419,5.389766070119252e-11,0.0741854606394419
5.569491947826338e-11,1,5.569491947826338e-11,1,5.569491947826338e-11,0,5.569491947826338e-11,0,5.569491947826338e-11,0.05102846658331928,5.569491947826338e-11,0.05102846658331928
5.761254567742222e-11,1,5.761254567742222e-11,1,5.761254567742222e-11,0,5.761254567742222e-11,0,5.761254567742222e-11,0.03334221698606876,5.761254567742222e-11,0.03334221698606876
5.975289493806181e-11,1,5.975289493806181e-11,1,5.975289493806181e-11,0,5.975289493806181e-11,0,5.975289493806181e-11,0.02021190952409052,5.975289493806181e-11,0.02021190952409052
6.127188146332824e-11,1,6.127188146332824e-11,1,6.127188146332824e-11,0,6.127188146332824e-11,0,6.127188146332824e-11,0.01398062491311741,6.127188146332824e-11,0.01398062491311741
6.25417306128467e-11,1,6.25417306128467e-11,1,6.25417306128467e-11,0,6.25417306128467e-11,0,6.25417306128467e-11,0.01013954176390838,6.25417306128467e-11,0.01013954176390838
6.393014077549707e-11,1,6.393014077549707e-11,1,6.393014077549707e-11,0,6.393014077549707e-11,0,6.393014077549707e-11,0.006973794068971166,6.393014077549707e-11,0.006973794068971166
6.516162500018208e-11,1,6.516162500018208e-11,1,6.516162500018208e-11,0,6.516162500018208e-11,0,6.516162500018208e-11,0.004721549960835549,6.516162500018208e-11,0.004721549960835549
6.607545238328372e-11,1,6.607545238328372e-11,1,6.607545238328372e-11,0,6.607545238328372e-11,0,6.607545238328372e-11,0.003353668972804436,6.607545238328372e-11,0.003353668972804436
6.706566814510206e-11,1,6.706566814510206e-11,1,6.706566814510206e-11,0,6.706566814510206e-11,0,6.706566814510206e-11,0.002202414080194986,6.706566814510206e-11,0.002202414080194986
6.833291519887463e-11,1,6.833291519887463e-11,1,6.833291519887463e-11,0,6.833291519887463e-11,0,6.833291519887463e-11,0.001169165495338857,6.833291519887463e-11,0.001169165495338857
6.974294713501538e-11,1,6.974294713501538e-11,1,6.974294713501538e-11,0,6.974294713501538e-11,0,6.974294713501538e-11,0.0004149100385356352,6.974294713501538e-11,0.0004149100385356352
7.090491532797159e-11,1,7.090491532797159e-11,1,7.090491532797159e-11,0,7.090491532797159e-11,0,7.090491532797159e-11,6.723674583948681e-06,7.090491532797159e-11,6.723674583948681e-06
7.223505936046495e-11,1,7.223505936046495e-11,1,7.223505936046495e-11,0,7.223505936046495e-11,0,7.223505936046495e-11,-0.0003208364925535341,7.223505936046495e-11,-0.0003208364925535341
7.401209201514911e-11,1,7.401209201514911e-11,1,7.401209201514911e-11,0,7.401209201514911e-11,0,7.401209201514911e-11,-0.0005719220868659042,7.401209201514911e-11,-0.0005719220868659042
7.686948700125423e-11,1,7.686948700125423e-11,1,7.686948700125423e-11,0,7.686948700125423e-11,0,7.686948700125423e-11,-0.0007178009733111356,7.686948700125423e-11,-0.0007178009733111356
8.084439015526789e-11,1,8.084439015526789e-11,1,8.084439015526789e-11,0,8.084439015526789e-11,0,8.084439015526789e-11,-0.0006554852332541635,8.084439015526789e-11,-0.0006554852332541635
8.579870636878105e-11,1,8.579870636878105e-11,1,8.579870636878105e-11,0,8.579870636878105e-11,0,8.579870636878105e-11,-0.0004316839778984243,8.579870636878105e-11,-0.0004316839778984243
9.205401187335721e-11,1,9.205401187335721e-11,1,9.205401187335721e-11,0,9.205401187335721e-11,0,9.205401187335721e-11,-0.0001058449934181251,9.205401187335721e-11,-0.0001058449934181251
9.857116963092332e-11,1,9.857116963092332e-11,1,9.857116963092332e-11,0,9.857116963092332e-11,0,9.857116963092332e-11,0.0002589411999706193,9.857116963092332e-11,0.0002589411999706193
1.03717783525021e-10,1,1.03717783525021e-10,1,1.03717783525021e-10,0,1.03717783525021e-10,0,1.03717783525021e-10,0.0005246494356915685,1.03717783525021e-10,0.0005246494356915685
1.102727376020399e-10,1,1.102727376020399e-10,1,1.102727376020399e-10,0,1.102727376020399e-10,0,1.102727376020399e-10,0.0006498124870331998,1.102727376020399e-10,0.0006498124870331998
1.152492802430509e-10,1,1.152492802430509e-10,1,1.152492802430509e-10,0,1.152492802430509e-10,0,1.152492802430509e-10,0.00059973912026838,1.152492802430509e-10,0.00059973912026838
1.213959175515297e-10,1,1.213959175515297e-10,1,1.213959175515297e-10,0,1.213959175515297e-10,0,1.213959175515297e-10,0.000505093940055568,1.213959175515297e-10,0.000505093940055568
1.284514771404088e-10,1,1.284514771404088e-10,1,1.284514771404088e-10,0,1.284514771404088e-10,0,1.284514771404088e-10,0.0003669894547721131,1.284514771404088e-10,0.0003669894547721131
1.386783120132292e-10,1,1.386783120132292e-10,1,1.386783120132292e-10,0,1.386783120132292e-10,0,1.386783120132292e-10,0.0002162511993667395,1.386783120132292e-10,0.0002162511993667395
1.521139042110115e-10,1,1.521139042110115e-10,1,1.521139042110115e-10,0,1.521139042110115e-10,0,1.521139042110115e-10,0.0001009950923288849,1.521139042110115e-10,0.0001009950923288849
1.704951222499852e-10,1,1.704951222499852e-10,1,1.704951222499852e-10,0,1.704951222499852e-10,0,1.704951222499852e-10,3.321408358361293e-05,1.704951222499852e-10,3.321408358361293e-05
1.927088959903944e-10,1,1.927088959903944e-10,1,1.927088959903944e-10,0,1.927088959903944e-10,0,1.927088959903944e-10,8.37382406192574e-06,1.927088959903944e-10,8.37382406192574e-06
2.203479109701821e-10,1,2.203479109701821e-10,1,2.203479109701821e-10,0,2.203479109701821e-10,0,2.203479109701821e-10,1.230099363123549e-06,2.203479109701821e-10,1.230099363123549e-06
2.596561620143429e-10,1,2.596561620143429e-10,1,2.596561620143429e-10,0,2.596561620143429e-10,0,2.596561620143429e-10,5.152624746462444e-07,2.596561620143429e-10,5.152624746462444e-07
3.179366562302818e-10,1,3.179366562302818e-10,1,3.179366562302818e-10,0,3.179366562302818e-10,0,3.179366562302818e-10,-7.77218631746415e-08,3.179366562302818e-10,-7.77218631746415e-08
3.979366562302818e-10,1,3.979366562302818e-10,1,3.979366562302818e-10,0,3.979366562302818e-10,0,3.979366562302818e-10,2.739690500204252e-07,3.979366562302818e-10,2.739690500204252e-07
4.22564102564102e-10,1,4.31282051282051e-10,1,4.22564102564102e-10,0,4.31282051282051e-10,0,4.22564102564102e-10,-1.170089097753976e-07,4.31282051282051e-10,-1.123871517302715e-07
4.227153445512815e-10,1,4.314162660256407e-10,1,4.227153445512815e-10,0,4.314162660256407e-10,0,4.227153445512815e-10,1.763294222019011e-07,4.314162660256407e-10,1.813845992965601e-07
4.227909655448713e-10,1,4.314833733974356e-10,1,4.227909655448713e-10,0,4.314833733974356e-10,0,4.227909655448713e-10,1.71850668011665e-07,4.314833733974356e-10,1.78120283011338e-07
4.229422075320508e-10,1,4.316175881410252e-10,1,4.229422075320508e-10,0,4.316175881410252e-10,0,4.229422075320508e-10,1.500645065097346e-07,4.316175881410252e-10,1.558899225405808e-07
4.232446915064098e-10,1,4.318860176282046e-10,1,4.232446915064098e-10,0,4.318860176282046e-10,0,4.232446915064098e-10,1.340423889365343e-07,4.318860176282046e-10,1.415884364637112e-07
4.238496594551278e-10,1,4.324228766025632e-10,1,4.238496594551278e-10,0,4.324228766025632e-10,0,4.238496594551278e-10,9.891686788657242e-08,4.324228766025632e-10,1.042307634674373e-07
4.250595953525638e-10,1,4.334965945512805e-10,1,4.250595953525638e-10,0,4.334965945512805e-10,0,4.250595953525638e-10,8.866071227361281e-08,4.334965945512805e-10,9.18256364976165e-08
4.274794671474358e-10,1,4.356440304487151e-10,1,4.274794671474358e-10,0,4.356440304487151e-10,0,4.274794671474358e-10,8.293377831024605e-08,4.356440304487151e-10,8.220738910323537e-08
4.323192107371799e-10,1,4.399389022435843e-10,1,4.323192107371799e-10,0,4.399389022435843e-10,0,4.323192107371799e-10,9.621299674273275e-08,4.399389022435843e-10,9.787415341855432e-08
4.419986979166681e-10,1,4.485286458333227e-10,1,4.419986979166681e-10,0,4.485286458333227e-10,0,4.419986979166681e-10,8.638827413758415e-08,4.485286458333227e-10,8.66861114637364e-08
4.613576722756443e-10,1,4.657081330127995e-10,1,4.613576722756443e-10,0,4.657081330127995e-10,0,4.613576722756443e-10,9.405720784915618e-08,4.657081330127995e-10,9.454223444305398e-08
5e-10,1,5e-10,1,5e-10,0,5e-10,0,5e-10,8.643393241604639e-08,5e-10,8.598261166561024e-08
5.0078125e-10,0.9843750000000009,5.0078125e-10,0.9843750000000009,5.0078125e-10,0,5.0078125e-10,0,5.0078125e-10,-0.001594506165630797,5.0078125e-10,-0.001594506059920339
5.023437499999999e-10,0.9531250000000027,5.023437499999999e-10,0.9531250000000027,5.023437499999999e-10,0,5.023437499999999e-10,0,5.023437499999999e-10,-0.004179960254002457,5.023437499999999e-10,-0.004179959841551884
5.054687499999997e-10,0.8906250000000062,5.054687499999997e-10,0.8906250000000062,5.054687499999997e-10,0,5.054687499999997e-10,0,5.054687499999997e-10,-0.006832122234788707,5.054687499999997e-10,-0.006832115777150123
5.076967188298985e-10,0.8460656234020303,5.076967187474352e-10,0.8460656250512961,5.076967188298985e-10,0,5.076967187474352e-10,0,5.076967188298985e-10,-0.007490271909259182,5.076967187474352e-10,-0.007490273334965228
5.10679772323255e-10,0.7864045535349009,5.106797721417884e-10,0.7864045571642324,5.10679772323255e-10,0,5.106797721417884e-10,0,5.10679772323255e-10,-0.007871504086091854,5.106797721417884e-10,-0.007871499940442745
5.153583414779449e-10,0.6928331704411024,5.153583412870271e-10,0.692833174259459,5.153583414779449e-10,0,5.153583412870271e-10,0,5.153583414779449e-10,-0.008008191905361579,5.153583412870271e-10,-0.008008194411947204
5.213826938676263e-10,0.5723461226474753,5.213826938801594e-10,0.5723461223968127,5.213826938676263e-10,0,5.213826938801594e-10,0,5.213826938676263e-10,-0.007653845247618768,5.213826938801594e-10,-0.007653842539353177
5.259017412784105e-10,0.4819651744317898,5.259017600059771e-10,0.4819647998804586,5.259017412784105e-10,0,5.259017600059771e-10,0,5.259017412784105e-10,-0.006871200902627471,5.259017600059771e-10,-0.006871199005103212
5.292712338007319e-10,0.414575323985362,5.292712110904343e-10,0.4145757781913137,5.292712338007319e-10,0,5.292712110904343e-10,0,5.292712338007319e-10,-0.006064216860917787,5.292712110904343e-10,-0.006064220842455645
5.33699759124355e-10,0.3260048175129012,5.336997235525909e-10,0.326005528948182,5.33699759124355e-10,0,5.336997235525909e-10,0,5.33699759124355e-10,-0.005001386447780772,5.336997235525909e-10,-0.005001395597476396
5.369506471674166e-10,0.2609870566516695,5.369506160034825e-10,0.2609876799303503,5.369506471674166e-10,0,5.369506160034825e-10,0,5.369506471674166e-10,-0.004424599156530863,5.369506160034825e-10,-0.004424602409112469
5.403184593319148e-10,0.1936308133617052,5.403184200528355e-10,0.193631598943291,5.403184593319148e-10,0,5.403184200528355e-10,0,5.403184593319148e-10,-0.004032727234439388,5.403184200528355e-10,-0.004032732153105107
5.440683828445053e-10,0.1186323431098955,5.440683494361063e-10,0.1186330112778751,5.440683828445053e-10,0,5.440683494361063e-10,0,5.440683828445053e-10,-0.003784318793393146,5.440683494361063e-10,-0.003784318942665319
5.454889739810409e-10,0.0902205203791826,5.454889419746715e-10,0.09022116050657092,5.454889739810409e-10,0,5.454889419746715e-10,0,5.454889739810409e-10,-0.003733411130937146,5.454889419746715e-10,-0.003733413397213075
5.469504862188213e-10,0.06099027562357429,5.469504586172922e-10,0.06099082765415731,5.469504862188213e-10,0,5.469504586172922e-10,0,5.469504862188213e-10,-0.003702468110290151,5.469504586172922e-10,-0.003702467244165977
5.485871614150833e-10,0.02825677169833385,5.485871447260913e-10,0.02825710547817462,5.485871614150833e-10,0,5.485871447260913e-10,0,5.485871614150833e-10,-0.003684144962510706,5.485871447260913e-10,-0.003684146442147948
5.500000000000001e-10,0,5.500000000000001e-10,0,5.500000000000001e-10,0,5.500000000000001e-10,0,5.500000000000001e-10,-0.003671306492888875,5.500000000000001e-10,-0.003671305210448912
5.500312916045079e-10,0,5.500312914659604e-10,0,5.500312916045079e-10,0,5.500312914659604e-10,0,5.500312916045079e-10,-0.003644785972138211,5.500312914659604e-10,-0.003644786046022631
5.500938748135237e-10,0,5.50093874397881e-10,0,5.500938748135237e-10,0,5.50093874397881e-10,0,5.500938748135237e-10,-0.003590125090967135,5.50093874397881e-10,-0.003590125524267373
5.501251664180316e-10,0,5.501251658638413e-10,0,5.501251664180316e-10,0,5.501251658638413e-10,0,5.501251664180316e-10,-0.003563159333367992,5.501251658638413e-10,-0.003563159773227171
5.501877496270474e-10,0,5.501877487957619e-10,0,5.501877496270474e-10,0,5.501877487957619e-10,0,5.501877496270474e-10,-0.003510047139148955,5.501877487957619e-10,-0.003510047899340841
5.503129160450789e-10,0,5.503129146596031e-10,0,5.503129160450789e-10,0,5.503129146596031e-10,0,5.503129160450789e-10,-0.003406341008233986,5.503129146596031e-10,-0.003406342107732632
5.50563248881142e-10,0,5.505632463872855e-10,0,5.50563248881142e-10,0,5.505632463872855e-10,0,5.50563248881142e-10,-0.003209562686539032,5.505632463872855e-10,-0.003209564637639822
5.510562327317711e-10,0,5.5105622910284e-10,0,5.510562327317711e-10,0,5.5105622910284e-10,0,5.510562327317711e-10,-0.002858472294755726,5.5105622910284e-10,-0.002858474684813894
5.512338925402466e-10,0,5.51233888333e-10,0,5.512338925402466e-10,0,5.51233888333e-10,0,5.512338925402466e-10,-0.002743233912828426,5.51233888333e-10,-0.00274323663850127
5.515892121571974e-10,0,5.515892067933199e-10,0,5.515892121571974e-10,0,5.515892067933199e-10,0,5.515892121571974e-10,-0.002527892643615982,5.515892067933199e-10,-0.0025278957220779
5.522998513910992e-10,0,5.522998437139598e-10,0,5.522998513910992e-10,0,5.522998437139598e-10,0,5.522998513910992e-10,-0.002151921118505041,5.522998437139598e-10,-0.002151924873739912
5.537211298589027e-10,0,5.537211175552396e-10,0,5.537211298589027e-10,0,5.537211175552396e-10,0,5.537211298589027e-10,-0.001571553286923735,5.537211175552396e-10,-0.001571557439443427
5.55799860069437e-10,0,5.55799841304447e-10,0,5.55799860069437e-10,0,5.55799841304447e-10,0,5.55799860069437e-10,-0.001015551236802478,5.55799841304447e-10,-0.001015555154169202
5.582967655826304e-10,0,5.582967441872021e-10,0,5.582967655826304e-10,0,5.582967441872021e-10,0,5.582967655826304e-10,-0.0006039887005557608,5.582967441872021e-10,-0.000603991713331562
