/Q (d_del=4.189744e-10) X,/Q (d_del=4.189744e-10) Y,/Q (d_del=4.45e-10) X,/Q (d_del=4.45e-10) Y,/D (d_del=4.45e-10) X,/D (d_del=4.45e-10) Y,/D (d_del=4.189744e-10) X,/D (d_del=4.189744e-10) Y,/Clk (d_del=4.189744e-10) X,/Clk (d_del=4.189744e-10) Y,/Clk (d_del=4.45e-10) X,/Clk (d_del=4.45e-10) Y
0,0.4953185830382429,0,0.4953185830382429,0,1,0,1,0,0,0,0
1.5625e-14,0.4953328089502275,1.5625e-14,0.4953328089502275,1.5625e-14,1,1.5625e-14,1,1.5625e-14,0.0003125000000000001,1.5625e-14,0.0003125000000000001
4.687500000000001e-14,0.4953643496667426,4.687500000000001e-14,0.4953643496667426,4.687500000000001e-14,1,4.687500000000001e-14,1,4.687500000000001e-14,0.0009375000000000002,4.687500000000001e-14,0.0009375000000000002
6.250000000000001e-14,0.4953803735741397,6.250000000000001e-14,0.4953803735741397,6.250000000000001e-14,1,6.250000000000001e-14,1,6.250000000000001e-14,0.00125,6.250000000000001e-14,0.00125
9.375000000000002e-14,0.4954122365009365,9.375000000000002e-14,0.4954122365009365,9.375000000000002e-14,1,9.375000000000002e-14,1,9.375000000000002e-14,0.001875,9.375000000000002e-14,0.001875
1.5625e-13,0.4954757165852088,1.5625e-13,0.4954757165852088,1.5625e-13,1,1.5625e-13,1,1.5625e-13,0.003125,1.5625e-13,0.003125
2.8125e-13,0.4956023690448239,2.8125e-13,0.4956023690448239,2.8125e-13,1,2.8125e-13,1,2.8125e-13,0.005625000000000001,2.8125e-13,0.005625000000000001
5.312500000000001e-13,0.4958539186117158,5.312500000000001e-13,0.4958539186117158,5.312500000000001e-13,1,5.312500000000001e-13,1,5.312500000000001e-13,0.010625,5.312500000000001e-13,0.010625
9.830173790154848e-13,0.4963050077930479,9.830173790154848e-13,0.4963050077930479,9.830173790154848e-13,1,9.830173790154848e-13,1,9.830173790154848e-13,0.01966034758030969,9.830173790154848e-13,0.01966034758030969
1.633715990631492e-12,0.4969428781964955,1.633715990631492e-12,0.4969428781964955,1.633715990631492e-12,1,1.633715990631492e-12,1,1.633715990631492e-12,0.03267431981262984,1.633715990631492e-12,0.03267431981262984
2.747542757300152e-12,0.4980104482861714,2.747542757300152e-12,0.4980104482861714,2.747542757300152e-12,1,2.747542757300152e-12,1,2.747542757300152e-12,0.05495085514600304,2.747542757300152e-12,0.05495085514600304
4.975196290637472e-12,0.5000744795797143,4.975196290637472e-12,0.5000744795797143,4.975196290637472e-12,1,4.975196290637472e-12,1,4.975196290637472e-12,0.09950392581274943,4.975196290637472e-12,0.09950392581274943
8.793181401413662e-12,0.5034725466194373,8.793181401413662e-12,0.5034725466194373,8.793181401413662e-12,1,8.793181401413662e-12,1,8.793181401413662e-12,0.1758636280282732,8.793181401413662e-12,0.1758636280282732
1.378489803414681e-11,0.5077894743085106,1.378489803414681e-11,0.5077894743085106,1.378489803414681e-11,1,1.378489803414681e-11,1,1.378489803414681e-11,0.2756979606829362,1.378489803414681e-11,0.2756979606829362
2.064855591000074e-11,0.5129473066155975,2.064855591000074e-11,0.5129473066155975,2.064855591000074e-11,1,2.064855591000074e-11,1,2.064855591000074e-11,0.4129711182000148,2.064855591000074e-11,0.4129711182000148
2.436173242623288e-11,0.5140405860727985,2.436173242623288e-11,0.5140405860727985,2.436173242623288e-11,1,2.436173242623288e-11,1,2.436173242623288e-11,0.4872346485246575,2.436173242623288e-11,0.4872346485246575
2.756049748407673e-11,0.5113699446111432,2.756049748407673e-11,0.5113699446111432,2.756049748407673e-11,1,2.756049748407673e-11,1,2.756049748407673e-11,0.5512099496815346,2.756049748407673e-11,0.5512099496815346
3.160294039802535e-11,0.4962090452568961,3.160294039802535e-11,0.4962090452568961,3.160294039802535e-11,1,3.160294039802535e-11,1,3.160294039802535e-11,0.632058807960507,3.160294039802535e-11,0.632058807960507
3.458523062587548e-11,0.4712699676473872,3.458523062587548e-11,0.4712699676473872,3.458523062587548e-11,1,3.458523062587548e-11,1,3.458523062587548e-11,0.6917046125175096,3.458523062587548e-11,0.6917046125175096
3.74544249614679e-11,0.4324567354257,3.74544249614679e-11,0.4324567354257,3.74544249614679e-11,1,3.74544249614679e-11,1,3.74544249614679e-11,0.7490884992293581,3.74544249614679e-11,0.7490884992293581
3.924232656833576e-11,0.4006698825072793,3.924232656833576e-11,0.4006698825072793,3.924232656833576e-11,1,3.924232656833576e-11,1,3.924232656833576e-11,0.7848465313667152,3.924232656833576e-11,0.7848465313667152
4.139760884195002e-11,0.3554390800379565,4.139760884195002e-11,0.3554390800379565,4.139760884195002e-11,1,4.139760884195002e-11,1,4.139760884195002e-11,0.8279521768390004,4.139760884195002e-11,0.8279521768390004
4.300983491197047e-11,0.3175080269322121,4.300983491197047e-11,0.3175080269322121,4.300983491197047e-11,1,4.300983491197047e-11,1,4.300983491197047e-11,0.8601966982394095,4.300983491197047e-11,0.8601966982394095
4.452664997538652e-11,0.2795821453215154,4.452664997538652e-11,0.2795821453215154,4.452664997538652e-11,1,4.452664997538652e-11,1,4.452664997538652e-11,0.8905329995077305,4.452664997538652e-11,0.8905329995077305
4.55408593538465e-11,0.2535267253040239,4.55408593538465e-11,0.2535267253040239,4.55408593538465e-11,1,4.55408593538465e-11,1,4.55408593538465e-11,0.9108171870769299,4.55408593538465e-11,0.9108171870769299
4.686115737604144e-11,0.2198280389809789,4.686115737604144e-11,0.2198280389809789,4.686115737604144e-11,1,4.686115737604144e-11,1,4.686115737604144e-11,0.9372231475208288,4.686115737604144e-11,0.9372231475208288
4.806377378952663e-11,0.1904996570816878,4.806377378952663e-11,0.1904996570816878,4.806377378952663e-11,1,4.806377378952663e-11,1,4.806377378952663e-11,0.9612754757905325,4.806377378952663e-11,0.9612754757905325
4.903188689476331e-11,0.1683540320746382,4.903188689476331e-11,0.1683540320746382,4.903188689476331e-11,1,4.903188689476331e-11,1,4.903188689476331e-11,0.9806377378952662,4.903188689476331e-11,0.9806377378952662
5e-11,0.1474541779191346,5e-11,0.1474541779191346,5e-11,1,5e-11,1,5e-11,1,5e-11,1
5.002812549806288e-11,0.1468081194550672,5.002812549806288e-11,0.1468081194550672,5.002812549806288e-11,1,5.002812549806288e-11,1,5.002812549806288e-11,1,5.002812549806288e-11,1
5.008437649418864e-11,0.1455063363799358,5.008437649418864e-11,0.1455063363799358,5.008437649418864e-11,1,5.008437649418864e-11,1,5.008437649418864e-11,1,5.008437649418864e-11,1
5.019687848644015e-11,0.1429153658596295,5.019687848644015e-11,0.1429153658596295,5.019687848644015e-11,1,5.019687848644015e-11,1,5.019687848644015e-11,1,5.019687848644015e-11,1
5.042188247094317e-11,0.1377945659915197,5.042188247094317e-11,0.1377945659915197,5.042188247094317e-11,1,5.042188247094317e-11,1,5.042188247094317e-11,1,5.042188247094317e-11,1
5.087189043994922e-11,0.1277977814788718,5.087189043994922e-11,0.1277977814788718,5.087189043994922e-11,1,5.087189043994922e-11,1,5.087189043994922e-11,1,5.087189043994922e-11,1
5.154284515905479e-11,0.1135937266892937,5.154284515905479e-11,0.1135937266892937,5.154284515905479e-11,1,5.154284515905479e-11,1,5.154284515905479e-11,1,5.154284515905479e-11,1
5.244390724941669e-11,0.09612182445035854,5.244390724941669e-11,0.09612182445035854,5.244390724941669e-11,1,5.244390724941669e-11,1,5.244390724941669e-11,1,5.244390724941669e-11,1
5.376011951379298e-11,0.07450627131966306,5.376011951379298e-11,0.07450627131966306,5.376011951379298e-11,1,5.376011951379298e-11,1,5.376011951379298e-11,1,5.376011951379298e-11,1
5.551723972742902e-11,0.05266793513333924,5.551723972742902e-11,0.05266793513333924,5.551723972742902e-11,1,5.551723972742902e-11,1,5.551723972742902e-11,1,5.551723972742902e-11,1
5.741492336353075e-11,0.03652516315322686,5.741492336353075e-11,0.03652516315322686,5.741492336353075e-11,1,5.741492336353075e-11,1,5.741492336353075e-11,1,5.741492336353075e-11,1
5.958891709685211e-11,0.02526787479499677,5.958891709685211e-11,0.02526787479499677,5.958891709685211e-11,1,5.958891709685211e-11,1,5.958891709685211e-11,1,5.958891709685211e-11,1
6.134715143929172e-11,0.02102436495118699,6.134715143929172e-11,0.02102436495118699,6.134715143929172e-11,1,6.134715143929172e-11,1,6.134715143929172e-11,1,6.134715143929172e-11,1
6.265362915224526e-11,0.02079768466294779,6.265362915224526e-11,0.02079768466294779,6.265362915224526e-11,1,6.265362915224526e-11,1,6.265362915224526e-11,1,6.265362915224526e-11,1
6.39846302891186e-11,0.02340666777402132,6.39846302891186e-11,0.02340666777402132,6.39846302891186e-11,1,6.39846302891186e-11,1,6.39846302891186e-11,1,6.39846302891186e-11,1
6.504182277948398e-11,0.02757405513380691,6.504182277948398e-11,0.02757405513380691,6.504182277948398e-11,1,6.504182277948398e-11,1,6.504182277948398e-11,1,6.504182277948398e-11,1
6.614846675654115e-11,0.03388761346948297,6.614846675654115e-11,0.03388761346948297,6.614846675654115e-11,1,6.614846675654115e-11,1,6.614846675654115e-11,1,6.614846675654115e-11,1
6.712270453217097e-11,0.04100842770256459,6.712270453217097e-11,0.04100842770256459,6.712270453217097e-11,1,6.712270453217097e-11,1,6.712270453217097e-11,1,6.712270453217097e-11,1
6.796574081600999e-11,0.04827088592330696,6.796574081600999e-11,0.04827088592330696,6.796574081600999e-11,1,6.796574081600999e-11,1,6.796574081600999e-11,1,6.796574081600999e-11,1
6.917198030536425e-11,0.06023820036166897,6.917198030536425e-11,0.06023820036166897,6.917198030536425e-11,1,6.917198030536425e-11,1,6.917198030536425e-11,1,6.917198030536425e-11,1
7.006233993883149e-11,0.0702479437509196,7.006233993883149e-11,0.0702479437509196,7.006233993883149e-11,1,7.006233993883149e-11,1,7.006233993883149e-11,1,7.006233993883149e-11,1
7.117946722045642e-11,0.08414332257393838,7.117946722045642e-11,0.08414332257393838,7.117946722045642e-11,1,7.117946722045642e-11,1,7.117946722045642e-11,1,7.117946722045642e-11,1
7.259691894526787e-11,0.1036159995326319,7.259691894526787e-11,0.1036159995326319,7.259691894526787e-11,1,7.259691894526787e-11,1,7.259691894526787e-11,1,7.259691894526787e-11,1
7.450911349488973e-11,0.1321165439786254,7.450911349488973e-11,0.1321165439786254,7.450911349488973e-11,1,7.450911349488973e-11,1,7.450911349488973e-11,1,7.450911349488973e-11,1
7.684440871509118e-11,0.1686510212413747,7.684440871509118e-11,0.1686510212413747,7.684440871509118e-11,1,7.684440871509118e-11,1,7.684440871509118e-11,1,7.684440871509118e-11,1
7.9367532862351e-11,0.2085350265205658,7.9367532862351e-11,0.2085350265205658,7.9367532862351e-11,1,7.9367532862351e-11,1,7.9367532862351e-11,1,7.9367532862351e-11,1
8.13355023663672e-11,0.2393268087935276,8.13355023663672e-11,0.2393268087935276,8.13355023663672e-11,1,8.13355023663672e-11,1,8.13355023663672e-11,1,8.13355023663672e-11,1
8.329533497742217e-11,0.2695870119151186,8.329533497742217e-11,0.2695870119151186,8.329533497742217e-11,1,8.329533497742217e-11,1,8.329533497742217e-11,1,8.329533497742217e-11,1
8.545320012464149e-11,0.3024341286995635,8.545320012464149e-11,0.3024341286995635,8.545320012464149e-11,1,8.545320012464149e-11,1,8.545320012464149e-11,1,8.545320012464149e-11,1
8.746865380111636e-11,0.3325285035152903,8.746865380111636e-11,0.3325285035152903,8.746865380111636e-11,1,8.746865380111636e-11,1,8.746865380111636e-11,1,8.746865380111636e-11,1
8.952662357782395e-11,0.3623848026591266,8.952662357782395e-11,0.3623848026591266,8.952662357782395e-11,1,8.952662357782395e-11,1,8.952662357782395e-11,1,8.952662357782395e-11,1
9.193538338075154e-11,0.3957011854814842,9.193538338075154e-11,0.3957011854814842,9.193538338075154e-11,1,9.193538338075154e-11,1,9.193538338075154e-11,1,9.193538338075154e-11,1
9.505021837484318e-11,0.4352981622946897,9.505021837484318e-11,0.4352981622946897,9.505021837484318e-11,1,9.505021837484318e-11,1,9.505021837484318e-11,1,9.505021837484318e-11,1
9.882958872113866e-11,0.4771929385386304,9.882958872113866e-11,0.4771929385386304,9.882958872113866e-11,1,9.882958872113866e-11,1,9.882958872113866e-11,1,9.882958872113866e-11,1
1.037808705619318e-10,0.5230130435652666,1.037808705619318e-10,0.5230130435652666,1.037808705619318e-10,1,1.037808705619318e-10,1,1.037808705619318e-10,1,1.037808705619318e-10,1
1.103938118469987e-10,0.5780303630781319,1.103938118469987e-10,0.5780303630781319,1.103938118469987e-10,1,1.103938118469987e-10,1,1.103938118469987e-10,1,1.103938118469987e-10,1
1.170549311977314e-10,0.6476637169113588,1.170549311977314e-10,0.6476637169113588,1.170549311977314e-10,1,1.170549311977314e-10,1,1.170549311977314e-10,1,1.170549311977314e-10,1
1.226386713496088e-10,0.7426711463849603,1.226386713496088e-10,0.7426711463849603,1.226386713496088e-10,1,1.226386713496088e-10,1,1.226386713496088e-10,1,1.226386713496088e-10,1
1.265786100340251e-10,0.8304230893430853,1.265786100340251e-10,0.8304230893430853,1.265786100340251e-10,1,1.265786100340251e-10,1,1.265786100340251e-10,1,1.265786100340251e-10,1
1.296965333299515e-10,0.8892292109261222,1.296965333299515e-10,0.8892292109261222,1.296965333299515e-10,1,1.296965333299515e-10,1,1.296965333299515e-10,1,1.296965333299515e-10,1
1.312822309552083e-10,0.912003147632489,1.312822309552083e-10,0.912003147632489,1.312822309552083e-10,1,1.312822309552083e-10,1,1.312822309552083e-10,1,1.312822309552083e-10,1
1.324449585361657e-10,0.9267583435263573,1.324449585361657e-10,0.9267583435263573,1.324449585361657e-10,1,1.324449585361657e-10,1,1.324449585361657e-10,1,1.324449585361657e-10,1
1.33726333662657e-10,0.9408430758581751,1.33726333662657e-10,0.9408430758581751,1.33726333662657e-10,1,1.33726333662657e-10,1,1.33726333662657e-10,1,1.33726333662657e-10,1
1.348998672526008e-10,0.9520123591490566,1.348998672526008e-10,0.9520123591490566,1.348998672526008e-10,1,1.348998672526008e-10,1,1.348998672526008e-10,1,1.348998672526008e-10,1
1.368074371425386e-10,0.966754773982366,1.368074371425386e-10,0.966754773982366,1.368074371425386e-10,1,1.368074371425386e-10,1,1.368074371425386e-10,1,1.368074371425386e-10,1
1.381807783844731e-10,0.9748356717745538,1.381807783844731e-10,0.9748356717745538,1.381807783844731e-10,1,1.381807783844731e-10,1,1.381807783844731e-10,1,1.381807783844731e-10,1
1.394909555067252e-10,0.9807401377698153,1.394909555067252e-10,0.9807401377698153,1.394909555067252e-10,1,1.394909555067252e-10,1,1.394909555067252e-10,1,1.394909555067252e-10,1
1.406315962718544e-10,0.9846027015099132,1.406315962718544e-10,0.9846027015099132,1.406315962718544e-10,1,1.406315962718544e-10,1,1.406315962718544e-10,1,1.406315962718544e-10,1
1.416262313931047e-10,0.9871452230915518,1.416262313931047e-10,0.9871452230915518,1.416262313931047e-10,1,1.416262313931047e-10,1,1.416262313931047e-10,1,1.416262313931047e-10,1
1.425656797305119e-10,0.9890404937229833,1.425656797305119e-10,0.9890404937229833,1.425656797305119e-10,1,1.425656797305119e-10,1,1.425656797305119e-10,1,1.425656797305119e-10,1
1.437582726238692e-10,0.9909914853192542,1.437582726238692e-10,0.9909914853192542,1.437582726238692e-10,1,1.437582726238692e-10,1,1.437582726238692e-10,1,1.437582726238692e-10,1
1.446862673952858e-10,0.9922505010516424,1.446862673952858e-10,0.9922505010516424,1.446862673952858e-10,1,1.446862673952858e-10,1,1.446862673952858e-10,1,1.446862673952858e-10,1
1.459653858956463e-10,0.9937032623839143,1.459653858956463e-10,0.9937032623839143,1.459653858956463e-10,1,1.459653858956463e-10,1,1.459653858956463e-10,1,1.459653858956463e-10,1
1.47715262964946e-10,0.9952643259694932,1.47715262964946e-10,0.9952643259694932,1.47715262964946e-10,1,1.47715262964946e-10,1,1.47715262964946e-10,1,1.47715262964946e-10,1
1.500182213696674e-10,0.9967322789848364,1.500182213696674e-10,0.9967322789848364,1.500182213696674e-10,1,1.500182213696674e-10,1,1.500182213696674e-10,1,1.500182213696674e-10,1
1.529336240254917e-10,0.9978997492731667,1.529336240254917e-10,0.9978997492731667,1.529336240254917e-10,1,1.529336240254917e-10,1,1.529336240254917e-10,1,1.529336240254917e-10,1
1.567649631504825e-10,0.9987051475861621,1.567649631504825e-10,0.9987051475861621,1.567649631504825e-10,1,1.567649631504825e-10,1,1.567649631504825e-10,1,1.567649631504825e-10,1
1.617110041602359e-10,0.9991388584296163,1.617110041602359e-10,0.9991388584296163,1.617110041602359e-10,1,1.617110041602359e-10,1,1.617110041602359e-10,1,1.617110041602359e-10,1
1.682084760584422e-10,0.9993383752222311,1.682084760584422e-10,0.9993383752222311,1.682084760584422e-10,1,1.682084760584422e-10,1,1.682084760584422e-10,1,1.682084760584422e-10,1
1.777132789192168e-10,0.9994572787762988,1.777132789192168e-10,0.9994572787762988,1.777132789192168e-10,1,1.777132789192168e-10,1,1.777132789192168e-10,1,1.777132789192168e-10,1
1.938082421927125e-10,0.9995775347822149,1.938082421927125e-10,0.9995775347822149,1.938082421927125e-10,1,1.938082421927125e-10,1,1.938082421927125e-10,1,1.938082421927125e-10,1
2.25998168739704e-10,0.9997161079430753,2.25998168739704e-10,0.9997161079430753,2.25998168739704e-10,1,2.25998168739704e-10,1,2.25998168739704e-10,1,2.25998168739704e-10,1
2.683385443910683e-10,0.9998045668792006,2.683385443910683e-10,0.9998045668792006,2.683385443910683e-10,1,2.683385443910683e-10,1,2.683385443910683e-10,1,2.683385443910683e-10,1
3.236847942082144e-10,0.9998649735003281,3.236847942082144e-10,0.9998649735003281,3.236847942082144e-10,1,3.236847942082144e-10,1,3.236847942082144e-10,1,3.236847942082144e-10,1
3.943182967908326e-10,0.9999039893905308,3.943182967908326e-10,0.9999039893905308,3.943182967908326e-10,1,3.943182967908326e-10,1,3.943182967908326e-10,1,3.943182967908326e-10,1
4.18974358974359e-10,0.9999135688329974,4.45e-10,0.9999216926495622,4.45e-10,1,4.18974358974359e-10,1,4.18974358974359e-10,1,4.45e-10,1
4.594871794871795e-10,0.9999245705015938,5e-10,0.9999336447380165,5e-10,1,4.594871794871795e-10,1,4.594871794871795e-10,1,5e-10,1
4.696153846153847e-10,0.9999271733908992,5.00048828125e-10,0.9999024387517754,5.00048828125e-10,1,4.696153846153847e-10,1,4.696153846153847e-10,1,5.00048828125e-10,0.9990234374999999
4.848076923076924e-10,0.999930709309589,5.00146484375e-10,0.9998408683650428,5.00146484375e-10,1,4.848076923076924e-10,1,4.848076923076924e-10,1,5.00146484375e-10,0.9970703124999998
5e-10,0.9999339776557119,5.003417968750001e-10,0.9997198427379927,5.003417968750001e-10,1,5e-10,1,5e-10,1,5.003417968750001e-10,0.9931640624999994
5.0009765625e-10,0.9998722754433488,5.007324218750001e-10,0.9994979230629834,5.007324218750001e-10,1,5.0009765625e-10,1,5.0009765625e-10,0.9980468749999999,5.007324218750001e-10,0.9853515624999989
5.002929687500001e-10,0.9997504870598447,5.013169935566324e-10,0.999214331634553,5.013169935566324e-10,1,5.002929687500001e-10,1,5.002929687500001e-10,0.9941406249999996,5.013169935566324e-10,0.9736601288673522
5.006835937500001e-10,0.9995251304825994,5.021452741432899e-10,0.9988957597047248,5.021452741432899e-10,1,5.006835937500001e-10,1,5.006835937500001e-10,0.986328124999999,5.021452741432899e-10,0.957094517134203
5.014648437500001e-10,0.9991499016709361,5.033140234542079e-10,0.9985785566662375,5.033140234542079e-10,1,5.014648437500001e-10,1,5.014648437500001e-10,0.9707031249999978,5.033140234542079e-10,0.9337195309158423
5.022610082494506e-10,0.9988590571912692,5.053287762198243e-10,0.9982618598627713,5.053287762198243e-10,1,5.022610082494506e-10,1,5.022610082494506e-10,0.9547798350109881,5.053287762198243e-10,0.8934244756035146
5.034562522945338e-10,0.9985487120406501,5.093582817510571e-10,0.998035101711343,5.093582817510571e-10,1,5.034562522945338e-10,1,5.034562522945338e-10,0.9308749541093255,5.093582817510571e-10,0.8128343649788594
5.05431352544876e-10,0.9982524093176166,5.151864661648539e-10,0.9979884125690118,5.151864661648539e-10,1,5.05431352544876e-10,1,5.05431352544876e-10,0.8913729491024815,5.151864661648539e-10,0.6962706767029234
5.093815530455603e-10,0.9980364316721514,5.232293882646635e-10,0.9979669724599589,5.232293882646635e-10,1,5.093815530455603e-10,1,5.093815530455603e-10,0.8123689390887937,5.232293882646635e-10,0.5354122347067303
5.152904351537348e-10,0.997987632016866,5.270687481631822e-10,0.9979989305375383,5.270687481631822e-10,1,5.152904351537348e-10,1,5.152904351537348e-10,0.694191296925305,5.270687481631822e-10,0.4586250367363565
